Note: can't find init file.
Warning -- Level not specified on line ""
Using level 1.
Warning: vin: no DC value, transient time 0 value used
Warning: can't parse '0': ignored
Warning: can't parse '0': ignored
 
Circuit: 2010-05-05 08:15:04 +0200
 
Doing analysis at TEMP = 27.000000 and TNOM = 27.000000

 
Initial Transient Solution
--------------------------
 
Node                                   Voltage
----                                   -------
4                                            0
2                                      0.67062
3                                    0.0724607
1                                           20
vin#branch                          0.00186048
vdd#branch                         -0.00193294



No. of Data Rows : 60

No. of Data Rows : 51
 
                           2010-05-05 08:15:04 +0200
                           Transient Analysis  Tue Oct 19 22:44:55  2010
--------------------------------------------------------------------------------
Index   time            v(2)            v(4)            
--------------------------------------------------------------------------------
0	0.000000e+00	6.706205e-01	0.000000e+00	
1	1.500000e-06	6.711793e-01	5.654866e-04	
2	3.000000e-06	6.717382e-01	1.130973e-03	
3	6.000000e-06	6.728559e-01	2.261945e-03	
4	1.200000e-05	6.750912e-01	4.523878e-03	
5	2.400000e-05	6.795615e-01	9.047663e-03	
6	4.800000e-05	6.885000e-01	1.809459e-02	
7	9.600000e-05	7.063669e-01	3.618325e-02	
8	1.920000e-04	7.420415e-01	7.231911e-02	
9	3.840000e-04	8.130003e-01	1.442595e-01	
10	7.680000e-04	9.520958e-01	2.855010e-01	
11	1.368000e-03	1.156105e+00	4.931647e-01	
12	1.968000e-03	1.334869e+00	6.757034e-01	
13	2.568000e-03	1.479433e+00	8.238176e-01	
14	3.168000e-03	1.582692e+00	9.299614e-01	
15	3.768000e-03	1.639712e+00	9.887271e-01	
16	4.368000e-03	1.647847e+00	9.971209e-01	
17	4.968000e-03	1.606725e+00	9.547151e-01	
18	5.568000e-03	1.518240e+00	8.636702e-01	
19	6.168000e-03	1.386578e+00	7.286244e-01	
20	6.768000e-03	1.218155e+00	5.564580e-01	
21	7.368000e-03	1.021366e+00	3.559422e-01	
22	7.968000e-03	8.061308e-01	1.372924e-01	
23	8.568000e-03	5.831971e-01	-8.83519e-02	
24	9.168000e-03	3.630520e-01	-3.09495e-01	
25	9.768000e-03	1.579615e-01	-5.14871e-01	
26	1.036800e-02	-2.09610e-02	-6.94015e-01	
27	1.096800e-02	-1.64564e-01	-8.37803e-01	
28	1.156800e-02	-2.65539e-01	-9.38907e-01	
29	1.216800e-02	-3.18741e-01	-9.92178e-01	
30	1.276800e-02	-3.21461e-01	-9.94900e-01	
31	1.336800e-02	-2.73558e-01	-9.46937e-01	
32	1.396800e-02	-1.77475e-01	-8.50730e-01	
33	1.456800e-02	-3.81060e-02	-7.11182e-01	
34	1.516800e-02	1.374464e-01	-5.35402e-01	
35	1.576800e-02	3.402333e-01	-3.32346e-01	
36	1.636800e-02	5.593991e-01	-1.12357e-01	
37	1.696800e-02	7.825286e-01	1.133558e-01	
38	1.756800e-02	9.991016e-01	3.332935e-01	
39	1.816800e-02	1.198353e+00	5.362511e-01	
40	1.876800e-02	1.370232e+00	7.118888e-01	
41	1.936800e-02	1.506158e+00	8.512584e-01	
42	1.996800e-02	1.599488e+00	9.472595e-01	
43	2.056800e-02	1.645793e+00	9.950013e-01	
44	2.116800e-02	1.642934e+00	9.920516e-01	
45	2.176800e-02	1.591043e+00	9.385605e-01	
46	2.236800e-02	1.492521e+00	8.372533e-01	
47	2.296800e-02	1.352061e+00	6.932912e-01	
48	2.356800e-02	1.176546e+00	5.140084e-01	
49	2.416800e-02	9.747581e-01	3.085389e-01	
50	2.476800e-02	7.568745e-01	8.735047e-02	
51	2.536800e-02	5.336632e-01	-1.38288e-01	
52	2.596800e-02	3.157318e-01	-3.56881e-01	
53	2.656800e-02	1.155872e-01	-5.57293e-01	
54	2.716800e-02	-5.62129e-02	-7.29313e-01	

Index   time            v(2)            v(4)            
--------------------------------------------------------------------------------
55	2.776800e-02	-1.90904e-01	-8.64176e-01	
56	2.836800e-02	-2.81625e-01	-9.55014e-01	
57	2.896800e-02	-3.23754e-01	-9.97197e-01	
58	2.956800e-02	-3.15145e-01	-9.88576e-01	
59	3.000000e-02	-2.77673e-01	-9.51057e-01	


                           2011-08-27 00:06:24 +0200
                           DC transfer characteristic  Fri Dec 30 11:12:01  2011
--------------------------------------------------------------------------------
Index   v-sweep         v(out)          
--------------------------------------------------------------------------------
0	0.000000e+00	4.995083e+00	
1	1.000000e-01	4.899673e+00	
2	2.000000e-01	4.799952e+00	
3	3.000000e-01	4.699999e+00	
4	4.000000e-01	4.599999e+00	
5	5.000000e-01	4.500000e+00	
6	6.000000e-01	4.400000e+00	
7	7.000000e-01	4.300000e+00	
8	8.000000e-01	4.200000e+00	
9	9.000000e-01	4.100000e+00	
10	1.000000e+00	4.000000e+00	
11	1.100000e+00	3.900000e+00	
12	1.200000e+00	3.800000e+00	
13	1.300000e+00	3.700000e+00	
14	1.400000e+00	3.600000e+00	
15	1.500000e+00	3.500000e+00	
16	1.600000e+00	3.400000e+00	
17	1.700000e+00	3.300000e+00	
18	1.800000e+00	3.200000e+00	
19	1.900000e+00	3.100000e+00	
20	2.000000e+00	3.000000e+00	
21	2.100000e+00	2.900000e+00	
22	2.200000e+00	2.800000e+00	
23	2.300000e+00	2.700000e+00	
24	2.400000e+00	2.600000e+00	
25	2.500000e+00	2.500000e+00	
26	2.600000e+00	2.407143e+00	
27	2.700000e+00	2.325980e+00	
28	2.800000e+00	2.253768e+00	
29	2.900000e+00	2.188594e+00	
30	3.000000e+00	2.129163e+00	
31	3.100000e+00	2.074520e+00	
32	3.200000e+00	2.023942e+00	
33	3.300000e+00	1.976866e+00	
34	3.400000e+00	1.932841e+00	
35	3.500000e+00	1.891503e+00	
36	3.600000e+00	1.852551e+00	
37	3.700000e+00	1.815734e+00	
38	3.800000e+00	1.780839e+00	
39	3.900000e+00	1.747686e+00	
40	4.000000e+00	1.716117e+00	
41	4.100000e+00	1.685999e+00	
42	4.200000e+00	1.657212e+00	
43	4.300000e+00	1.629652e+00	
44	4.400000e+00	1.603227e+00	
45	4.500000e+00	1.577855e+00	
46	4.600000e+00	1.553463e+00	
47	4.700000e+00	1.529985e+00	
48	4.800000e+00	1.507361e+00	
49	4.900000e+00	1.485537e+00	
50	5.000000e+00	1.464466e+00	



CPU time since last call: 0.017 seconds.

Total CPU time: 0.017 seconds.

Current dynamic memory usage = 0 bytes,
Dynamic memory limit = 8796093018076.000000 MB.

